T174FC 000:006.971   SEGGER J-Link V6.98 Log File
T174FC 000:007.131   DLL Compiled: Mar  2 2021 15:48:59
T174FC 000:007.155   Logging started @ 2026-08-02 09:57
T174FC 000:007.175 - 7.191ms
T174FC 000:007.212 JLINK_SetWarnOutHandler(...)
T174FC 000:007.235 - 0.033ms
T174FC 000:007.256 JLINK_OpenEx(...)
T174FC 000:012.889   Firmware: J-Link V9 compiled May  7 2021 16:26:12
T174FC 000:013.747   Firmware: J-Link V9 compiled May  7 2021 16:26:12
T174FC 000:013.910   Decompressing FW timestamp took 94 us
T174FC 000:028.397   Hardware: V9.40
T174FC 000:028.459   S/N: 69404702
T174FC 000:028.487   OEM: SEGGER
T174FC 000:028.514   Feature(s): RDI, GDB, FlashDL, FlashBP, JFlash
T174FC 000:033.876   TELNET listener socket opened on port 19021
T174FC 000:034.048   WEBSRV Starting webserver
T174FC 000:034.178   WEBSRV Failed to put socket into listener state (port 19080)
T174FC 000:034.355   WEBSRV Webserver running on local port 19081
T174FC 000:034.475 - 27.239ms returns "O.K."
T174FC 000:034.594 JLINK_GetEmuCaps()
T174FC 000:034.652 - 0.079ms returns 0xB9FF7BBF
T174FC 000:034.704 JLINK_TIF_GetAvailable(...)
T174FC 000:038.394 - 3.745ms
T174FC 000:038.539 JLINK_SetErrorOutHandler(...)
T174FC 000:038.625 - 0.101ms
T174FC 000:038.681 JLINK_ExecCommand("ProjectFile = "F:\EmbeddedProjects\CUBEMXProjects\LiXin-MCU-RTOS\Projects\MCU_RTOS_Learn\08_Homework\15_opensource_library_RTT\MDK-ARM\JLinkSettings.ini"", ...). 
T174FC 000:044.780   Ref file found at: E:\MDK\Core\ARM\Segger\JLinkDevices.ref
T174FC 000:044.976   XML referenced by ref file: D:\Drivers\J-Link\JLinkDevices.xml
T174FC 000:045.583   D:\Drivers\J-Link\JLinkDevices.xml evaluated successfully.
T174FC 000:051.555 - 12.903ms returns 0x00
T174FC 000:054.762 JLINK_ExecCommand("Device = STM32F411CEUx", ...). 
T174FC 000:057.507   Device "STM32F411CE" selected.
T174FC 000:057.967 - 3.176ms returns 0x00
T174FC 000:058.003 JLINK_GetHardwareVersion()
T174FC 000:058.032 - 0.038ms returns 94000
T174FC 000:058.054 JLINK_GetDLLVersion()
T174FC 000:058.071 - 0.026ms returns 69800
T174FC 000:058.090 JLINK_GetOEMString(...)
T174FC 000:058.111 JLINK_GetFirmwareString(...)
T174FC 000:058.129 - 0.027ms
T174FC 000:066.874 JLINK_GetDLLVersion()
T174FC 000:066.936 - 0.071ms returns 69800
T174FC 000:066.958 JLINK_GetCompileDateTime()
T174FC 000:066.977 - 0.028ms
T174FC 000:071.254 JLINK_GetFirmwareString(...)
T174FC 000:071.306 - 0.062ms
T174FC 000:074.006 JLINK_GetHardwareVersion()
T174FC 000:074.044 - 0.048ms returns 94000
T174FC 000:079.680 JLINK_GetSN()
T174FC 000:079.760 - 0.092ms returns 69404702
T174FC 000:084.815 JLINK_GetOEMString(...)
T174FC 000:090.559 JLINK_TIF_Select(JLINKARM_TIF_SWD)
T174FC 000:095.339 - 4.833ms returns 0x00
T174FC 000:095.440 JLINK_HasError()
T174FC 000:095.488 JLINK_SetSpeed(5000)
T174FC 000:106.513 - 11.091ms
T174FC 000:106.674 JLINK_GetId()
T174FC 000:123.622   Found SW-DP with ID 0x2BA01477
T174FC 000:170.892   Found SW-DP with ID 0x2BA01477
T174FC 000:184.064   DPIDR: 0x2BA01477
T174FC 000:189.966   Scanning AP map to find all available APs
T174FC 000:194.940   AP[1]: Stopped AP scan as end of AP map has been reached
T174FC 000:198.257   AP[0]: AHB-AP (IDR: 0x24770011)
T174FC 000:201.871   Iterating through AP map to find AHB-AP to use
T174FC 000:207.613   AP[0]: Core found
T174FC 000:211.256   AP[0]: AHB-AP ROM base: 0xE00FF000
T174FC 000:215.182   CPUID register: 0x410FC241. Implementer code: 0x41 (ARM)
T174FC 000:219.967   Found Cortex-M4 r0p1, Little endian.
T174FC 000:322.992   -- Max. mem block: 0x0000D370
T174FC 000:327.212   CPU_ReadMem(4 bytes @ 0xE000EDF0)
T174FC 000:327.972   CPU_ReadMem(4 bytes @ 0xE0002000)
T174FC 000:333.376   FPUnit: 6 code (BP) slots and 2 literal slots
T174FC 000:333.467   CPU_ReadMem(4 bytes @ 0xE000EDFC)
T174FC 000:334.355   CPU_ReadMem(4 bytes @ 0xE0001000)
T174FC 000:335.102   CPU_WriteMem(4 bytes @ 0xE0001000)
T174FC 000:335.804   CPU_ReadMem(4 bytes @ 0xE000ED88)
T174FC 000:336.570   CPU_WriteMem(4 bytes @ 0xE000ED88)
T174FC 000:337.396   CPU_ReadMem(4 bytes @ 0xE000ED88)
T174FC 000:338.221   CPU_WriteMem(4 bytes @ 0xE000ED88)
T174FC 000:341.832   CoreSight components:
T174FC 000:344.419   ROMTbl[0] @ E00FF000
T174FC 000:344.474   CPU_ReadMem(64 bytes @ 0xE00FF000)
T174FC 000:345.579   CPU_ReadMem(32 bytes @ 0xE000EFE0)
T174FC 000:351.072   ROMTbl[0][0]: E000E000, CID: B105E00D, PID: 000BB00C SCS-M7
T174FC 000:351.130   CPU_ReadMem(32 bytes @ 0xE0001FE0)
T174FC 000:356.377   ROMTbl[0][1]: E0001000, CID: B105E00D, PID: 003BB002 DWT
T174FC 000:356.460   CPU_ReadMem(32 bytes @ 0xE0002FE0)
T174FC 000:361.310   ROMTbl[0][2]: E0002000, CID: B105E00D, PID: 002BB003 FPB
T174FC 000:361.364   CPU_ReadMem(32 bytes @ 0xE0000FE0)
T174FC 000:369.006   ROMTbl[0][3]: E0000000, CID: B105E00D, PID: 003BB001 ITM
T174FC 000:369.094   CPU_ReadMem(32 bytes @ 0xE0040FE0)
T174FC 000:373.406   ROMTbl[0][4]: E0040000, CID: B105900D, PID: 000BB9A1 TPIU
T174FC 000:373.485   CPU_ReadMem(32 bytes @ 0xE0041FE0)
T174FC 000:377.468   ROMTbl[0][5]: E0041000, CID: B105900D, PID: 000BB925 ETM
T174FC 000:378.227 - 271.576ms returns 0x2BA01477
T174FC 000:378.344 JLINK_GetDLLVersion()
T174FC 000:378.366 - 0.031ms returns 69800
T174FC 000:378.389 JLINK_CORE_GetFound()
T174FC 000:378.406 - 0.027ms returns 0xE0000FF
T174FC 000:378.435 JLINK_GetDebugInfo(0x100 = JLINKARM_ROM_TABLE_ADDR_INDEX)
T174FC 000:378.455   Value=0xE00FF000
T174FC 000:378.483 - 0.057ms returns 0
T174FC 000:383.902 JLINK_GetDebugInfo(0x100 = JLINKARM_ROM_TABLE_ADDR_INDEX)
T174FC 000:383.963   Value=0xE00FF000
T174FC 000:383.990 - 0.097ms returns 0
T174FC 000:384.010 JLINK_GetDebugInfo(0x101 = JLINKARM_DEBUG_INFO_ETM_ADDR_INDEX)
T174FC 000:384.028   Value=0xE0041000
T174FC 000:384.055 - 0.054ms returns 0
T174FC 000:384.075 JLINK_ReadMemEx(0xE0041FD0, 0x20 Bytes, Flags = 0x02000004)
T174FC 000:384.126   CPU_ReadMem(32 bytes @ 0xE0041FD0)
T174FC 000:385.602   Data:  04 00 00 00 00 00 00 00 00 00 00 00 00 00 00 00 ...
T174FC 000:385.686 - 1.626ms returns 32 (0x20)
T174FC 000:385.777 JLINK_GetDebugInfo(0x102 = JLINKARM_DEBUG_INFO_MTB_ADDR_INDEX)
T174FC 000:385.812   Value=0x00000000
T174FC 000:385.859 - 0.099ms returns 0
T174FC 000:385.893 JLINK_GetDebugInfo(0x103 = JLINKARM_DEBUG_INFO_TPIU_ADDR_INDEX)
T174FC 000:385.933   Value=0xE0040000
T174FC 000:386.021 - 0.143ms returns 0
T174FC 000:386.055 JLINK_GetDebugInfo(0x104 = JLINKARM_DEBUG_INFO_ITM_ADDR_INDEX)
T174FC 000:386.087   Value=0xE0000000
T174FC 000:386.133 - 0.093ms returns 0
T174FC 000:386.166 JLINK_GetDebugInfo(0x105 = JLINKARM_DEBUG_INFO_DWT_ADDR_INDEX)
T174FC 000:386.197   Value=0xE0001000
T174FC 000:386.244 - 0.093ms returns 0
T174FC 000:386.277 JLINK_GetDebugInfo(0x106 = JLINKARM_DEBUG_INFO_FPB_ADDR_INDEX)
T174FC 000:386.300   Value=0xE0002000
T174FC 000:386.331 - 0.062ms returns 0
T174FC 000:386.349 JLINK_GetDebugInfo(0x107 = JLINKARM_DEBUG_INFO_NVIC_ADDR_INDEX)
T174FC 000:386.367   Value=0xE000E000
T174FC 000:386.394 - 0.054ms returns 0
T174FC 000:386.413 JLINK_GetDebugInfo(0x10C = JLINKARM_DEBUG_INFO_DBG_ADDR_INDEX)
T174FC 000:386.431   Value=0xE000EDF0
T174FC 000:386.457 - 0.052ms returns 0
T174FC 000:386.475 JLINK_GetDebugInfo(0x01 = Unknown)
T174FC 000:386.493   Value=0x00000001
T174FC 000:386.520 - 0.053ms returns 0
T174FC 000:386.539 JLINK_ReadMemU32(0xE000ED00, 0x1 Items)
T174FC 000:386.568   CPU_ReadMem(4 bytes @ 0xE000ED00)
T174FC 000:387.805   Data:  41 C2 0F 41
T174FC 000:387.877   Debug reg: CPUID
T174FC 000:387.923 - 1.400ms returns 1 (0x1)
T174FC 000:388.005 JLINK_GetDebugInfo(0x10F = JLINKARM_DEBUG_INFO_HAS_CORTEX_M_SECURITY_EXT_INDEX)
T174FC 000:388.039   Value=0x00000000
T174FC 000:388.085 - 0.096ms returns 0
T174FC 000:388.119 JLINK_HasError()
T174FC 000:388.152 JLINK_SetResetType(JLINKARM_CM3_RESET_TYPE_NORMAL)
T174FC 000:388.183 - 0.046ms returns JLINKARM_CM3_RESET_TYPE_NORMAL
T174FC 000:388.216 JLINK_Reset()
T174FC 000:390.368   CPU is running
T174FC 000:390.437   CPU_WriteMem(4 bytes @ 0xE000EDF0)
T174FC 000:413.813   CPU is running
T174FC 000:413.923   CPU_WriteMem(4 bytes @ 0xE000EDFC)
T174FC 000:419.596   Reset: Halt core after reset via DEMCR.VC_CORERESET.
T174FC 000:424.231   Reset: Reset device via AIRCR.SYSRESETREQ.
T174FC 000:424.295   CPU is running
T174FC 000:424.327   CPU_WriteMem(4 bytes @ 0xE000ED0C)
T174FC 000:478.456   CPU_ReadMem(4 bytes @ 0xE000EDF0)
T174FC 000:479.300   CPU_ReadMem(4 bytes @ 0xE000EDF0)
T174FC 000:479.898   CPU is running
T174FC 000:479.954   CPU_WriteMem(4 bytes @ 0xE000EDF0)
T174FC 000:480.762   CPU is running
T174FC 000:480.812   CPU_WriteMem(4 bytes @ 0xE000EDFC)
T174FC 000:487.357   CPU_ReadMem(4 bytes @ 0xE000EDF0)
T174FC 000:491.938   CPU_WriteMem(4 bytes @ 0xE0002000)
T174FC 000:492.785   CPU_ReadMem(4 bytes @ 0xE000EDFC)
T174FC 000:493.467   CPU_ReadMem(4 bytes @ 0xE0001000)
T174FC 000:494.394 - 106.241ms
T174FC 000:494.565 JLINK_Halt()
T174FC 000:494.603 - 0.051ms returns 0x00
T174FC 000:494.638 JLINK_ReadMemU32(0xE000EDF0, 0x1 Items)
T174FC 000:494.684   CPU_ReadMem(4 bytes @ 0xE000EDF0)
T174FC 000:518.752   Data:  03 00 03 00
T174FC 000:518.885   Debug reg: DHCSR
T174FC 000:518.941 - 24.324ms returns 1 (0x1)
T174FC 000:519.098 JLINK_WriteU32_64(0xE000EDF0, 0xA05F0003)
T174FC 000:519.141   Debug reg: DHCSR
T174FC 000:520.290   CPU_WriteMem(4 bytes @ 0xE000EDF0)
T174FC 000:521.380 - 2.312ms returns 0 (0x00000000)
T174FC 000:521.469 JLINK_WriteU32_64(0xE000EDFC, 0x01000000)
T174FC 000:521.491   Debug reg: DEMCR
T174FC 000:521.526   CPU_WriteMem(4 bytes @ 0xE000EDFC)
T174FC 000:522.195 - 0.739ms returns 0 (0x00000000)
T174FC 000:538.212 JLINK_GetHWStatus(...)
T174FC 000:539.444 - 1.256ms returns 0
T174FC 000:548.415 JLINK_GetNumBPUnits(Type = 0xFFFFFF00)
T174FC 000:548.475 - 0.074ms returns 0x06
T174FC 000:548.500 JLINK_GetNumBPUnits(Type = 0xF0)
T174FC 000:548.519 - 0.028ms returns 0x2000
T174FC 000:548.539 JLINK_GetNumWPUnits()
T174FC 000:548.557 - 0.029ms returns 4
T174FC 000:556.307 JLINK_GetSpeed()
T174FC 000:556.349 - 0.051ms returns 4000
T174FC 000:560.258 JLINK_ReadMemU32(0xE000E004, 0x1 Items)
T174FC 000:560.309   CPU_ReadMem(4 bytes @ 0xE000E004)
T174FC 000:581.962   Data:  02 00 00 00
T174FC 000:582.066 - 21.824ms returns 1 (0x1)
T174FC 000:582.196 JLINK_ReadMemU32(0xE000E004, 0x1 Items)
T174FC 000:582.255   CPU_ReadMem(4 bytes @ 0xE000E004)
T174FC 000:583.829   Data:  02 00 00 00
T174FC 000:583.895 - 1.715ms returns 1 (0x1)
T174FC 000:584.025 JLINK_WriteMemEx(0xE0001000, 0x0000001C Bytes, Flags = 0x02000004)
T174FC 000:584.061   Data:  01 00 00 00 00 00 00 00 00 00 00 00 00 00 00 00 ...
T174FC 000:584.126   CPU_WriteMem(28 bytes @ 0xE0001000)
T174FC 000:585.057 - 1.061ms returns 0x1C
T174FC 000:585.141 JLINK_Halt()
T174FC 000:585.162 - 0.032ms returns 0x00
T174FC 000:585.186 JLINK_IsHalted()
T174FC 000:585.210 - 0.033ms returns TRUE
T174FC 000:591.281 JLINK_WriteMem(0x20000000, 0x184 Bytes, ...)
T174FC 000:591.319   Data:  00 BE 0A E0 0D 78 2D 06 68 40 08 24 40 00 00 D3 ...
T174FC 000:591.581   CPU_WriteMem(388 bytes @ 0x20000000)
T174FC 000:594.382 - 3.132ms returns 0x184
T174FC 000:594.511 JLINK_HasError()
T174FC 000:594.560 JLINK_WriteReg(R0, 0x08000000)
T174FC 000:594.593 - 0.048ms returns 0
T174FC 000:594.623 JLINK_WriteReg(R1, 0x017D7840)
T174FC 000:594.652 - 0.042ms returns 0
T174FC 000:594.682 JLINK_WriteReg(R2, 0x00000001)
T174FC 000:594.711 - 0.043ms returns 0
T174FC 000:594.772 JLINK_WriteReg(R3, 0x00000000)
T174FC 000:594.806 - 0.049ms returns 0
T174FC 000:594.836 JLINK_WriteReg(R4, 0x00000000)
T174FC 000:594.865 - 0.042ms returns 0
T174FC 000:594.895 JLINK_WriteReg(R5, 0x00000000)
T174FC 000:594.923 - 0.042ms returns 0
T174FC 000:594.953 JLINK_WriteReg(R6, 0x00000000)
T174FC 000:594.983 - 0.044ms returns 0
T174FC 000:595.013 JLINK_WriteReg(R7, 0x00000000)
T174FC 000:595.041 - 0.042ms returns 0
T174FC 000:595.070 JLINK_WriteReg(R8, 0x00000000)
T174FC 000:595.106 - 0.049ms returns 0
T174FC 000:595.135 JLINK_WriteReg(R9, 0x20000180)
T174FC 000:595.163 - 0.042ms returns 0
T174FC 000:595.192 JLINK_WriteReg(R10, 0x00000000)
T174FC 000:595.221 - 0.042ms returns 0
T174FC 000:595.255 JLINK_WriteReg(R11, 0x00000000)
T174FC 000:595.285 - 0.044ms returns 0
T174FC 000:595.315 JLINK_WriteReg(R12, 0x00000000)
T174FC 000:595.343 - 0.041ms returns 0
T174FC 000:595.372 JLINK_WriteReg(R13 (SP), 0x20001000)
T174FC 000:595.401 - 0.043ms returns 0
T174FC 000:595.430 JLINK_WriteReg(R14, 0x20000001)
T174FC 000:595.454 - 0.032ms returns 0
T174FC 000:595.472 JLINK_WriteReg(R15 (PC), 0x20000054)
T174FC 000:595.491 - 0.027ms returns 0
T174FC 000:595.509 JLINK_WriteReg(XPSR, 0x01000000)
T174FC 000:595.583 - 0.084ms returns 0
T174FC 000:595.636 JLINK_WriteReg(MSP, 0x20001000)
T174FC 000:595.657 - 0.032ms returns 0
T174FC 000:595.680 JLINK_WriteReg(PSP, 0x20001000)
T174FC 000:595.704 - 0.034ms returns 0
T174FC 000:595.726 JLINK_WriteReg(CFBP, 0x00000000)
T174FC 000:595.745 - 0.030ms returns 0
T174FC 000:595.766 JLINK_SetBPEx(Addr = 0x20000000, Type = 0xFFFFFFF2)
T174FC 000:595.798   CPU_ReadMem(2 bytes @ 0x20000000)
T174FC 000:596.680 - 0.956ms returns 0x00000001
T174FC 000:596.797 JLINK_Go()
T174FC 000:596.838   CPU_WriteMem(2 bytes @ 0x20000000)
T174FC 000:597.619   CPU_ReadMem(4 bytes @ 0xE0001000)
T174FC 000:598.351   CPU_WriteMem(4 bytes @ 0xE0002008)
T174FC 000:598.385   CPU_WriteMem(4 bytes @ 0xE000200C)
T174FC 000:598.414   CPU_WriteMem(4 bytes @ 0xE0002010)
T174FC 000:598.442   CPU_WriteMem(4 bytes @ 0xE0002014)
T174FC 000:598.471   CPU_WriteMem(4 bytes @ 0xE0002018)
T174FC 000:598.499   CPU_WriteMem(4 bytes @ 0xE000201C)
T174FC 000:600.303   CPU_WriteMem(4 bytes @ 0xE0001004)
T174FC 000:605.212 - 8.473ms
T174FC 000:605.340 JLINK_IsHalted()
T174FC 000:608.719   CPU_ReadMem(2 bytes @ 0x20000000)
T174FC 000:609.910 - 4.608ms returns TRUE
T174FC 000:610.005 JLINK_ReadReg(R15 (PC))
T174FC 000:610.043 - 0.054ms returns 0x20000000
T174FC 000:610.101 JLINK_ClrBPEx(BPHandle = 0x00000001)
T174FC 000:610.134 - 0.047ms returns 0x00
T174FC 000:610.167 JLINK_ReadReg(R0)
T174FC 000:610.198 - 0.047ms returns 0x00000000
T174FC 000:614.954 JLINK_HasError()
T174FC 000:615.030 JLINK_WriteReg(R0, 0x08000000)
T174FC 000:615.066 - 0.053ms returns 0
T174FC 000:615.100 JLINK_WriteReg(R1, 0x00004000)
T174FC 000:615.130 - 0.045ms returns 0
T174FC 000:615.160 JLINK_WriteReg(R2, 0x000000FF)
T174FC 000:615.190 - 0.043ms returns 0
T174FC 000:615.220 JLINK_WriteReg(R3, 0x00000000)
T174FC 000:615.249 - 0.043ms returns 0
T174FC 000:615.279 JLINK_WriteReg(R4, 0x00000000)
T174FC 000:615.308 - 0.043ms returns 0
T174FC 000:615.338 JLINK_WriteReg(R5, 0x00000000)
T174FC 000:615.367 - 0.043ms returns 0
T174FC 000:615.397 JLINK_WriteReg(R6, 0x00000000)
T174FC 000:615.426 - 0.043ms returns 0
T174FC 000:615.457 JLINK_WriteReg(R7, 0x00000000)
T174FC 000:615.488 - 0.046ms returns 0
T174FC 000:615.518 JLINK_WriteReg(R8, 0x00000000)
T174FC 000:615.547 - 0.051ms returns 0
T174FC 000:615.586 JLINK_WriteReg(R9, 0x20000180)
T174FC 000:615.615 - 0.043ms returns 0
T174FC 000:615.645 JLINK_WriteReg(R10, 0x00000000)
T174FC 000:615.675 - 0.043ms returns 0
T174FC 000:615.704 JLINK_WriteReg(R11, 0x00000000)
T174FC 000:615.734 - 0.044ms returns 0
T174FC 000:615.759 JLINK_WriteReg(R12, 0x00000000)
T174FC 000:615.778 - 0.028ms returns 0
T174FC 000:615.798 JLINK_WriteReg(R13 (SP), 0x20001000)
T174FC 000:615.818 - 0.029ms returns 0
T174FC 000:615.838 JLINK_WriteReg(R14, 0x20000001)
T174FC 000:615.857 - 0.028ms returns 0
T174FC 000:615.876 JLINK_WriteReg(R15 (PC), 0x20000020)
T174FC 000:615.896 - 0.028ms returns 0
T174FC 000:615.915 JLINK_WriteReg(XPSR, 0x01000000)
T174FC 000:615.933 - 0.028ms returns 0
T174FC 000:615.953 JLINK_WriteReg(MSP, 0x20001000)
T174FC 000:615.972 - 0.028ms returns 0
T174FC 000:615.991 JLINK_WriteReg(PSP, 0x20001000)
T174FC 000:616.010 - 0.028ms returns 0
T174FC 000:616.029 JLINK_WriteReg(CFBP, 0x00000000)
T174FC 000:616.048 - 0.027ms returns 0
T174FC 000:616.069 JLINK_SetBPEx(Addr = 0x20000000, Type = 0xFFFFFFF2)
T174FC 000:616.090 - 0.030ms returns 0x00000002
T174FC 000:616.110 JLINK_Go()
T174FC 000:616.143   CPU_ReadMem(4 bytes @ 0xE0001000)
T174FC 000:642.613 - 26.557ms
T174FC 000:642.761 JLINK_IsHalted()
T174FC 000:646.383   CPU_ReadMem(2 bytes @ 0x20000000)
T174FC 000:647.092 - 4.361ms returns TRUE
T174FC 000:647.213 JLINK_ReadReg(R15 (PC))
T174FC 000:647.255 - 0.058ms returns 0x20000000
T174FC 000:647.294 JLINK_ClrBPEx(BPHandle = 0x00000002)
T174FC 000:647.327 - 0.048ms returns 0x00
T174FC 000:647.364 JLINK_ReadReg(R0)
T174FC 000:647.396 - 0.048ms returns 0x00000001
T174FC 000:647.435 JLINK_HasError()
T174FC 000:647.474 JLINK_WriteReg(R0, 0x08000000)
T174FC 000:647.507 - 0.049ms returns 0
T174FC 000:647.543 JLINK_WriteReg(R1, 0x00004000)
T174FC 000:647.575 - 0.047ms returns 0
T174FC 000:647.612 JLINK_WriteReg(R2, 0x000000FF)
T174FC 000:647.644 - 0.047ms returns 0
T174FC 000:647.680 JLINK_WriteReg(R3, 0x00000000)
T174FC 000:647.712 - 0.047ms returns 0
T174FC 000:647.748 JLINK_WriteReg(R4, 0x00000000)
T174FC 000:647.780 - 0.047ms returns 0
T174FC 000:647.816 JLINK_WriteReg(R5, 0x00000000)
T174FC 000:647.848 - 0.048ms returns 0
T174FC 000:647.884 JLINK_WriteReg(R6, 0x00000000)
T174FC 000:647.917 - 0.051ms returns 0
T174FC 000:647.949 JLINK_WriteReg(R7, 0x00000000)
T174FC 000:647.968 - 0.028ms returns 0
T174FC 000:647.989 JLINK_WriteReg(R8, 0x00000000)
T174FC 000:648.008 - 0.028ms returns 0
T174FC 000:648.030 JLINK_WriteReg(R9, 0x20000180)
T174FC 000:648.089 - 0.068ms returns 0
T174FC 000:648.111 JLINK_WriteReg(R10, 0x00000000)
T174FC 000:648.130 - 0.028ms returns 0
T174FC 000:648.151 JLINK_WriteReg(R11, 0x00000000)
T174FC 000:648.177 - 0.034ms returns 0
T174FC 000:648.199 JLINK_WriteReg(R12, 0x00000000)
T174FC 000:648.217 - 0.028ms returns 0
T174FC 000:648.239 JLINK_WriteReg(R13 (SP), 0x20001000)
T174FC 000:648.258 - 0.028ms returns 0
T174FC 000:648.280 JLINK_WriteReg(R14, 0x20000001)
T174FC 000:648.299 - 0.028ms returns 0
T174FC 000:648.321 JLINK_WriteReg(R15 (PC), 0x200000C0)
T174FC 000:648.340 - 0.028ms returns 0
T174FC 000:648.362 JLINK_WriteReg(XPSR, 0x01000000)
T174FC 000:648.382 - 0.028ms returns 0
T174FC 000:648.403 JLINK_WriteReg(MSP, 0x20001000)
T174FC 000:648.422 - 0.028ms returns 0
T174FC 000:648.444 JLINK_WriteReg(PSP, 0x20001000)
T174FC 000:648.463 - 0.028ms returns 0
T174FC 000:648.484 JLINK_WriteReg(CFBP, 0x00000000)
T174FC 000:648.503 - 0.029ms returns 0
T174FC 000:648.527 JLINK_SetBPEx(Addr = 0x20000000, Type = 0xFFFFFFF2)
T174FC 000:648.547 - 0.029ms returns 0x00000003
T174FC 000:648.569 JLINK_Go()
T174FC 000:648.596   CPU_ReadMem(4 bytes @ 0xE0001000)
T174FC 000:652.716 - 4.203ms
T174FC 000:652.860 JLINK_IsHalted()
T174FC 000:653.788 - 0.965ms returns FALSE
T174FC 000:653.893 JLINK_HasError()
T174FC 000:685.241 JLINK_IsHalted()
T174FC 000:692.789 - 7.578ms returns FALSE
T174FC 000:692.867 JLINK_HasError()
T174FC 000:703.621 JLINK_IsHalted()
T174FC 000:704.560 - 0.963ms returns FALSE
T174FC 000:704.629 JLINK_HasError()
T174FC 000:709.921 JLINK_IsHalted()
T174FC 000:710.856 - 0.957ms returns FALSE
T174FC 000:710.920 JLINK_HasError()
T174FC 000:712.486 JLINK_IsHalted()
T174FC 000:713.700 - 1.244ms returns FALSE
T174FC 000:713.792 JLINK_HasError()
T174FC 000:715.351 JLINK_IsHalted()
T174FC 000:716.119 - 0.785ms returns FALSE
T174FC 000:716.170 JLINK_HasError()
T174FC 000:717.935 JLINK_IsHalted()
T174FC 000:718.887 - 0.981ms returns FALSE
T174FC 000:718.979 JLINK_HasError()
T174FC 000:720.928 JLINK_IsHalted()
T174FC 000:721.878 - 0.984ms returns FALSE
T174FC 000:721.977 JLINK_HasError()
T174FC 000:723.923 JLINK_IsHalted()
T174FC 000:724.755 - 0.859ms returns FALSE
T174FC 000:724.834 JLINK_HasError()
T174FC 000:725.924 JLINK_IsHalted()
T174FC 000:726.748 - 0.848ms returns FALSE
T174FC 000:726.824 JLINK_HasError()
T174FC 000:727.920 JLINK_IsHalted()
T174FC 000:728.727 - 0.826ms returns FALSE
T174FC 000:728.785 JLINK_HasError()
T174FC 000:729.916 JLINK_IsHalted()
T174FC 000:730.771 - 0.897ms returns FALSE
T174FC 000:730.867 JLINK_HasError()
T174FC 000:732.923 JLINK_IsHalted()
T174FC 000:756.517 - 23.687ms returns FALSE
T174FC 000:756.688 JLINK_HasError()
T174FC 000:764.159 JLINK_IsHalted()
T174FC 000:764.965 - 0.825ms returns FALSE
T174FC 000:765.021 JLINK_HasError()
T174FC 000:766.355 JLINK_IsHalted()
T174FC 000:767.146 - 0.809ms returns FALSE
T174FC 000:767.191 JLINK_HasError()
T174FC 000:771.564 JLINK_IsHalted()
T174FC 000:772.526 - 0.995ms returns FALSE
T174FC 000:772.631 JLINK_HasError()
T174FC 000:773.849 JLINK_IsHalted()
T174FC 000:774.595 - 0.773ms returns FALSE
T174FC 000:774.662 JLINK_HasError()
T174FC 000:775.800 JLINK_IsHalted()
T174FC 000:776.567 - 0.786ms returns FALSE
T174FC 000:776.623 JLINK_HasError()
T174FC 000:777.821 JLINK_IsHalted()
T174FC 000:778.579 - 0.778ms returns FALSE
T174FC 000:778.631 JLINK_HasError()
T174FC 000:780.234 JLINK_IsHalted()
T174FC 000:781.013 - 0.807ms returns FALSE
T174FC 000:781.097 JLINK_HasError()
T174FC 000:782.269 JLINK_IsHalted()
T174FC 000:783.108 - 0.872ms returns FALSE
T174FC 000:783.198 JLINK_HasError()
T174FC 000:784.309 JLINK_IsHalted()
T174FC 000:785.111 - 0.832ms returns FALSE
T174FC 000:785.198 JLINK_HasError()
T174FC 000:786.417 JLINK_IsHalted()
T174FC 000:787.215 - 0.825ms returns FALSE
T174FC 000:787.328 JLINK_HasError()
T174FC 000:789.406 JLINK_IsHalted()
T174FC 000:790.185 - 0.797ms returns FALSE
T174FC 000:790.239 JLINK_HasError()
T174FC 000:791.412 JLINK_IsHalted()
T174FC 000:792.042 - 0.647ms returns FALSE
T174FC 000:792.093 JLINK_HasError()
T174FC 000:793.407 JLINK_IsHalted()
T174FC 000:794.065 - 0.674ms returns FALSE
T174FC 000:794.115 JLINK_HasError()
T174FC 000:795.409 JLINK_IsHalted()
T174FC 000:796.048 - 0.655ms returns FALSE
T174FC 000:796.098 JLINK_HasError()
T174FC 000:797.453 JLINK_IsHalted()
T174FC 000:820.917 - 23.535ms returns FALSE
T174FC 000:821.107 JLINK_HasError()
T174FC 000:825.652 JLINK_IsHalted()
T174FC 000:826.423 - 0.804ms returns FALSE
T174FC 000:826.509 JLINK_HasError()
T174FC 000:828.114 JLINK_IsHalted()
T174FC 000:829.018 - 0.974ms returns FALSE
T174FC 000:829.145 JLINK_HasError()
T174FC 000:831.113 JLINK_IsHalted()
T174FC 000:831.820 - 0.732ms returns FALSE
T174FC 000:831.883 JLINK_HasError()
T174FC 000:833.470 JLINK_IsHalted()
T174FC 000:834.460 - 1.036ms returns FALSE
T174FC 000:834.595 JLINK_HasError()
T174FC 000:836.682 JLINK_IsHalted()
T174FC 000:837.740 - 1.082ms returns FALSE
T174FC 000:837.811 JLINK_HasError()
T174FC 000:839.861 JLINK_IsHalted()
T174FC 000:840.595 - 0.768ms returns FALSE
T174FC 000:840.698 JLINK_HasError()
T174FC 000:841.862 JLINK_IsHalted()
T174FC 000:842.561 - 0.719ms returns FALSE
T174FC 000:842.620 JLINK_HasError()
T174FC 000:844.480 JLINK_IsHalted()
T174FC 000:845.200 - 0.747ms returns FALSE
T174FC 000:845.280 JLINK_HasError()
T174FC 000:846.867 JLINK_IsHalted()
T174FC 000:847.798 - 0.960ms returns FALSE
T174FC 000:847.891 JLINK_HasError()
T174FC 000:849.883 JLINK_IsHalted()
T174FC 000:850.809 - 0.944ms returns FALSE
T174FC 000:850.865 JLINK_HasError()
T174FC 000:852.884 JLINK_IsHalted()
T174FC 000:853.753 - 0.893ms returns FALSE
T174FC 000:853.820 JLINK_HasError()
T174FC 000:855.881 JLINK_IsHalted()
T174FC 000:856.607 - 0.744ms returns FALSE
T174FC 000:856.661 JLINK_HasError()
T174FC 000:857.881 JLINK_IsHalted()
T174FC 000:858.605 - 0.741ms returns FALSE
T174FC 000:858.656 JLINK_HasError()
T174FC 000:859.888 JLINK_IsHalted()
T174FC 000:861.268 - 1.422ms returns FALSE
T174FC 000:861.386 JLINK_HasError()
T174FC 000:862.877 JLINK_IsHalted()
T174FC 000:885.023 - 22.217ms returns FALSE
T174FC 000:885.307 JLINK_HasError()
T174FC 000:887.270 JLINK_IsHalted()
T174FC 000:888.216 - 0.980ms returns FALSE
T174FC 000:888.338 JLINK_HasError()
T174FC 000:890.562 JLINK_IsHalted()
T174FC 000:891.321 - 0.777ms returns FALSE
T174FC 000:891.370 JLINK_HasError()
T174FC 000:893.375 JLINK_IsHalted()
T174FC 000:894.062 - 0.713ms returns FALSE
T174FC 000:894.129 JLINK_HasError()
T174FC 000:895.361 JLINK_IsHalted()
T174FC 000:896.205 - 0.861ms returns FALSE
T174FC 000:896.335 JLINK_HasError()
T174FC 000:898.362 JLINK_IsHalted()
T174FC 000:899.040 - 0.695ms returns FALSE
T174FC 000:899.101 JLINK_HasError()
T174FC 000:900.359 JLINK_IsHalted()
T174FC 000:901.120 - 0.797ms returns FALSE
T174FC 000:901.327 JLINK_HasError()
T174FC 000:903.380 JLINK_IsHalted()
T174FC 000:904.274 - 0.936ms returns FALSE
T174FC 000:904.399 JLINK_HasError()
T174FC 000:906.384 JLINK_IsHalted()
T174FC 000:907.594 - 1.249ms returns FALSE
T174FC 000:907.700 JLINK_HasError()
T174FC 000:911.383 JLINK_IsHalted()
T174FC 000:912.457 - 1.099ms returns FALSE
T174FC 000:912.528 JLINK_HasError()
T174FC 000:914.395 JLINK_IsHalted()
T174FC 000:915.276 - 0.914ms returns FALSE
T174FC 000:915.376 JLINK_HasError()
T174FC 000:917.384 JLINK_IsHalted()
T174FC 000:918.240 - 0.886ms returns FALSE
T174FC 000:918.327 JLINK_HasError()
T174FC 000:919.665 JLINK_IsHalted()
T174FC 000:920.586 - 0.950ms returns FALSE
T174FC 000:920.656 JLINK_HasError()
T174FC 000:921.865 JLINK_IsHalted()
T174FC 000:922.540 - 0.692ms returns FALSE
T174FC 000:922.591 JLINK_HasError()
T174FC 000:924.246 JLINK_IsHalted()
T174FC 000:925.391 - 1.177ms returns FALSE
T174FC 000:925.481 JLINK_HasError()
T174FC 000:927.458 JLINK_IsHalted()
T174FC 000:948.886 - 21.481ms returns FALSE
T174FC 000:949.001 JLINK_HasError()
T174FC 000:950.455 JLINK_IsHalted()
T174FC 000:951.295 - 0.861ms returns FALSE
T174FC 000:951.380 JLINK_HasError()
T174FC 000:952.594 JLINK_IsHalted()
T174FC 000:958.970 - 6.410ms returns FALSE
T174FC 000:959.067 JLINK_HasError()
T174FC 000:960.855 JLINK_IsHalted()
T174FC 000:961.556 - 0.731ms returns FALSE
T174FC 000:961.707 JLINK_HasError()
T174FC 000:962.852 JLINK_IsHalted()
T174FC 000:963.739 - 0.907ms returns FALSE
T174FC 000:963.793 JLINK_HasError()
T174FC 000:965.374 JLINK_IsHalted()
T174FC 000:966.047 - 0.702ms returns FALSE
T174FC 000:966.132 JLINK_HasError()
T174FC 000:967.413 JLINK_IsHalted()
T174FC 000:968.332 - 0.960ms returns FALSE
T174FC 000:968.422 JLINK_HasError()
T174FC 000:969.668 JLINK_IsHalted()
T174FC 000:970.643 - 1.006ms returns FALSE
T174FC 000:970.723 JLINK_HasError()
T174FC 000:971.973 JLINK_IsHalted()
T174FC 000:972.960 - 1.007ms returns FALSE
T174FC 000:973.019 JLINK_HasError()
T174FC 000:974.252 JLINK_IsHalted()
T174FC 000:977.732   CPU_ReadMem(2 bytes @ 0x20000000)
T174FC 000:978.452 - 4.226ms returns TRUE
T174FC 000:978.533 JLINK_ReadReg(R15 (PC))
T174FC 000:978.571 - 0.052ms returns 0x20000000
T174FC 000:978.603 JLINK_ClrBPEx(BPHandle = 0x00000003)
T174FC 000:978.632 - 0.044ms returns 0x00
T174FC 000:978.663 JLINK_ReadReg(R0)
T174FC 000:978.700 - 0.051ms returns 0x00000000
T174FC 000:979.527 JLINK_HasError()
T174FC 000:979.559 JLINK_WriteReg(R0, 0x00000001)
T174FC 000:979.581 - 0.031ms returns 0
T174FC 000:979.601 JLINK_WriteReg(R1, 0x00004000)
T174FC 000:979.620 - 0.027ms returns 0
T174FC 000:979.639 JLINK_WriteReg(R2, 0x000000FF)
T174FC 000:979.657 - 0.027ms returns 0
T174FC 000:979.676 JLINK_WriteReg(R3, 0x00000000)
T174FC 000:979.695 - 0.027ms returns 0
T174FC 000:979.714 JLINK_WriteReg(R4, 0x00000000)
T174FC 000:979.732 - 0.026ms returns 0
T174FC 000:979.750 JLINK_WriteReg(R5, 0x00000000)
T174FC 000:979.768 - 0.027ms returns 0
T174FC 000:979.788 JLINK_WriteReg(R6, 0x00000000)
T174FC 000:979.806 - 0.027ms returns 0
T174FC 000:979.825 JLINK_WriteReg(R7, 0x00000000)
T174FC 000:979.843 - 0.026ms returns 0
T174FC 000:979.862 JLINK_WriteReg(R8, 0x00000000)
T174FC 000:979.882 - 0.028ms returns 0
T174FC 000:979.901 JLINK_WriteReg(R9, 0x20000180)
T174FC 000:979.921 - 0.029ms returns 0
T174FC 000:979.941 JLINK_WriteReg(R10, 0x00000000)
T174FC 000:979.959 - 0.028ms returns 0
T174FC 000:979.980 JLINK_WriteReg(R11, 0x00000000)
T174FC 000:979.999 - 0.028ms returns 0
T174FC 000:980.018 JLINK_WriteReg(R12, 0x00000000)
T174FC 000:980.037 - 0.028ms returns 0
T174FC 000:980.057 JLINK_WriteReg(R13 (SP), 0x20001000)
T174FC 000:980.077 - 0.029ms returns 0
T174FC 000:980.097 JLINK_WriteReg(R14, 0x20000001)
T174FC 000:980.116 - 0.028ms returns 0
T174FC 000:980.135 JLINK_WriteReg(R15 (PC), 0x20000086)
T174FC 000:980.155 - 0.028ms returns 0
T174FC 000:980.174 JLINK_WriteReg(XPSR, 0x01000000)
T174FC 000:980.204 - 0.039ms returns 0
T174FC 000:980.224 JLINK_WriteReg(MSP, 0x20001000)
T174FC 000:980.243 - 0.028ms returns 0
T174FC 000:980.263 JLINK_WriteReg(PSP, 0x20001000)
T174FC 000:980.282 - 0.029ms returns 0
T174FC 000:980.302 JLINK_WriteReg(CFBP, 0x00000000)
T174FC 000:980.321 - 0.028ms returns 0
T174FC 000:980.345 JLINK_SetBPEx(Addr = 0x20000000, Type = 0xFFFFFFF2)
T174FC 000:980.366 - 0.029ms returns 0x00000004
T174FC 000:980.386 JLINK_Go()
T174FC 000:980.413   CPU_ReadMem(4 bytes @ 0xE0001000)
T174FC 001:007.012 - 26.686ms
T174FC 001:007.149 JLINK_IsHalted()
T174FC 001:010.488   CPU_ReadMem(2 bytes @ 0x20000000)
T174FC 001:011.712 - 4.582ms returns TRUE
T174FC 001:011.776 JLINK_ReadReg(R15 (PC))
T174FC 001:011.801 - 0.034ms returns 0x20000000
T174FC 001:011.828 JLINK_ClrBPEx(BPHandle = 0x00000004)
T174FC 001:011.847 - 0.029ms returns 0x00
T174FC 001:011.868 JLINK_ReadReg(R0)
T174FC 001:011.888 - 0.029ms returns 0x00000000
T174FC 001:072.044 JLINK_WriteMem(0x20000000, 0x184 Bytes, ...)
T174FC 001:072.079   Data:  00 BE 0A E0 0D 78 2D 06 68 40 08 24 40 00 00 D3 ...
T174FC 001:072.122   CPU_WriteMem(388 bytes @ 0x20000000)
T174FC 001:074.899 - 2.888ms returns 0x184
T174FC 001:075.149 JLINK_HasError()
T174FC 001:075.186 JLINK_WriteReg(R0, 0x08000000)
T174FC 001:075.226 - 0.054ms returns 0
T174FC 001:075.257 JLINK_WriteReg(R1, 0x017D7840)
T174FC 001:075.285 - 0.042ms returns 0
T174FC 001:075.314 JLINK_WriteReg(R2, 0x00000002)
T174FC 001:075.343 - 0.042ms returns 0
T174FC 001:075.372 JLINK_WriteReg(R3, 0x00000000)
T174FC 001:075.400 - 0.042ms returns 0
T174FC 001:075.429 JLINK_WriteReg(R4, 0x00000000)
T174FC 001:075.458 - 0.042ms returns 0
T174FC 001:075.487 JLINK_WriteReg(R5, 0x00000000)
T174FC 001:075.515 - 0.041ms returns 0
T174FC 001:075.544 JLINK_WriteReg(R6, 0x00000000)
T174FC 001:075.572 - 0.041ms returns 0
T174FC 001:075.601 JLINK_WriteReg(R7, 0x00000000)
T174FC 001:075.629 - 0.042ms returns 0
T174FC 001:075.693 JLINK_WriteReg(R8, 0x00000000)
T174FC 001:075.721 - 0.042ms returns 0
T174FC 001:075.750 JLINK_WriteReg(R9, 0x20000180)
T174FC 001:075.779 - 0.042ms returns 0
T174FC 001:075.808 JLINK_WriteReg(R10, 0x00000000)
T174FC 001:075.836 - 0.041ms returns 0
T174FC 001:075.865 JLINK_WriteReg(R11, 0x00000000)
T174FC 001:075.893 - 0.041ms returns 0
T174FC 001:075.921 JLINK_WriteReg(R12, 0x00000000)
T174FC 001:075.949 - 0.041ms returns 0
T174FC 001:076.035 JLINK_WriteReg(R13 (SP), 0x20001000)
T174FC 001:076.067 - 0.046ms returns 0
T174FC 001:076.096 JLINK_WriteReg(R14, 0x20000001)
T174FC 001:076.146 - 0.072ms returns 0
T174FC 001:076.186 JLINK_WriteReg(R15 (PC), 0x20000054)
T174FC 001:076.215 - 0.043ms returns 0
T174FC 001:076.244 JLINK_WriteReg(XPSR, 0x01000000)
T174FC 001:076.273 - 0.042ms returns 0
T174FC 001:076.302 JLINK_WriteReg(MSP, 0x20001000)
T174FC 001:076.331 - 0.042ms returns 0
T174FC 001:076.360 JLINK_WriteReg(PSP, 0x20001000)
T174FC 001:076.389 - 0.043ms returns 0
T174FC 001:076.419 JLINK_WriteReg(CFBP, 0x00000000)
T174FC 001:076.448 - 0.043ms returns 0
T174FC 001:076.478 JLINK_SetBPEx(Addr = 0x20000000, Type = 0xFFFFFFF2)
T174FC 001:076.514   CPU_ReadMem(2 bytes @ 0x20000000)
T174FC 001:077.334 - 0.870ms returns 0x00000005
T174FC 001:077.376 JLINK_Go()
T174FC 001:077.398   CPU_WriteMem(2 bytes @ 0x20000000)
T174FC 001:078.084   CPU_ReadMem(4 bytes @ 0xE0001000)
T174FC 001:082.061 - 4.706ms
T174FC 001:082.118 JLINK_IsHalted()
T174FC 001:085.774   CPU_ReadMem(2 bytes @ 0x20000000)
T174FC 001:086.591 - 4.505ms returns TRUE
T174FC 001:086.684 JLINK_ReadReg(R15 (PC))
T174FC 001:086.724 - 0.057ms returns 0x20000000
T174FC 001:086.760 JLINK_ClrBPEx(BPHandle = 0x00000005)
T174FC 001:086.793 - 0.049ms returns 0x00
T174FC 001:086.827 JLINK_ReadReg(R0)
T174FC 001:086.860 - 0.049ms returns 0x00000000
T174FC 001:087.864 JLINK_WriteMem(0x20000184, 0x27C Bytes, ...)
T174FC 001:087.896   Data:  58 0E 00 20 B1 01 00 08 A5 19 00 08 51 18 00 08 ...
T174FC 001:087.935   CPU_WriteMem(636 bytes @ 0x20000184)
T174FC 001:092.113 - 4.291ms returns 0x27C
T174FC 001:092.236 JLINK_WriteMem(0x20000400, 0x184 Bytes, ...)
T174FC 001:092.269   Data:  10 BD 30 B5 05 46 2A 46 0B 46 12 F8 01 0B 13 F8 ...
T174FC 001:092.329   CPU_WriteMem(388 bytes @ 0x20000400)
T174FC 001:095.595 - 3.406ms returns 0x184
T174FC 001:095.723 JLINK_HasError()
T174FC 001:095.773 JLINK_WriteReg(R0, 0x08000000)
T174FC 001:095.811 - 0.054ms returns 0
T174FC 001:095.848 JLINK_WriteReg(R1, 0x00000400)
T174FC 001:095.886 - 0.054ms returns 0
T174FC 001:095.921 JLINK_WriteReg(R2, 0x20000184)
T174FC 001:095.953 - 0.047ms returns 0
T174FC 001:095.990 JLINK_WriteReg(R3, 0x00000000)
T174FC 001:096.022 - 0.048ms returns 0
T174FC 001:096.095 JLINK_WriteReg(R4, 0x00000000)
T174FC 001:096.128 - 0.049ms returns 0
T174FC 001:096.164 JLINK_WriteReg(R5, 0x00000000)
T174FC 001:096.197 - 0.048ms returns 0
T174FC 001:096.233 JLINK_WriteReg(R6, 0x00000000)
T174FC 001:096.264 - 0.047ms returns 0
T174FC 001:096.300 JLINK_WriteReg(R7, 0x00000000)
T174FC 001:096.332 - 0.047ms returns 0
T174FC 001:096.368 JLINK_WriteReg(R8, 0x00000000)
T174FC 001:096.399 - 0.047ms returns 0
T174FC 001:096.435 JLINK_WriteReg(R9, 0x20000180)
T174FC 001:096.467 - 0.047ms returns 0
T174FC 001:096.503 JLINK_WriteReg(R10, 0x00000000)
T174FC 001:096.535 - 0.047ms returns 0
T174FC 001:096.571 JLINK_WriteReg(R11, 0x00000000)
T174FC 001:096.603 - 0.047ms returns 0
T174FC 001:096.640 JLINK_WriteReg(R12, 0x00000000)
T174FC 001:096.672 - 0.047ms returns 0
T174FC 001:096.711 JLINK_WriteReg(R13 (SP), 0x20001000)
T174FC 001:096.742 - 0.039ms returns 0
T174FC 001:096.767 JLINK_WriteReg(R14, 0x20000001)
T174FC 001:096.785 - 0.027ms returns 0
T174FC 001:096.807 JLINK_WriteReg(R15 (PC), 0x2000010C)
T174FC 001:096.826 - 0.028ms returns 0
T174FC 001:096.847 JLINK_WriteReg(XPSR, 0x01000000)
T174FC 001:096.866 - 0.028ms returns 0
T174FC 001:096.887 JLINK_WriteReg(MSP, 0x20001000)
T174FC 001:096.905 - 0.027ms returns 0
T174FC 001:096.926 JLINK_WriteReg(PSP, 0x20001000)
T174FC 001:096.945 - 0.027ms returns 0
T174FC 001:096.965 JLINK_WriteReg(CFBP, 0x00000000)
T174FC 001:096.983 - 0.027ms returns 0
T174FC 001:097.004 JLINK_SetBPEx(Addr = 0x20000000, Type = 0xFFFFFFF2)
T174FC 001:097.024 - 0.028ms returns 0x00000006
T174FC 001:097.045 JLINK_Go()
T174FC 001:097.070   CPU_ReadMem(4 bytes @ 0xE0001000)
T174FC 001:101.588 - 4.592ms
T174FC 001:101.747 JLINK_IsHalted()
T174FC 001:102.540 - 0.824ms returns FALSE
T174FC 001:102.629 JLINK_HasError()
T174FC 001:108.729 JLINK_IsHalted()
T174FC 001:128.944   CPU_ReadMem(2 bytes @ 0x20000000)
T174FC 001:129.776 - 21.074ms returns TRUE
T174FC 001:129.879 JLINK_ReadReg(R15 (PC))
T174FC 001:129.918 - 0.052ms returns 0x20000000
T174FC 001:129.952 JLINK_ClrBPEx(BPHandle = 0x00000006)
T174FC 001:129.982 - 0.044ms returns 0x00
T174FC 001:130.015 JLINK_ReadReg(R0)
T174FC 001:130.045 - 0.043ms returns 0x00000000
T174FC 001:130.900 JLINK_WriteMem(0x20000184, 0x27C Bytes, ...)
T174FC 001:130.929   Data:  32 46 2B 46 00 F0 8D F9 03 B0 BD E8 F0 8F 40 46 ...
T174FC 001:130.967   CPU_WriteMem(636 bytes @ 0x20000184)
T174FC 001:134.937 - 4.097ms returns 0x27C
T174FC 001:135.064 JLINK_WriteMem(0x20000400, 0x184 Bytes, ...)
T174FC 001:135.095   Data:  33 42 02 DC 52 42 FF F7 52 BE FF F7 41 BE 00 00 ...
T174FC 001:135.148   CPU_WriteMem(388 bytes @ 0x20000400)
T174FC 001:137.987 - 2.966ms returns 0x184
T174FC 001:138.103 JLINK_HasError()
T174FC 001:138.138 JLINK_WriteReg(R0, 0x08000400)
T174FC 001:138.172 - 0.048ms returns 0
T174FC 001:138.207 JLINK_WriteReg(R1, 0x00000400)
T174FC 001:138.243 - 0.052ms returns 0
T174FC 001:138.278 JLINK_WriteReg(R2, 0x20000184)
T174FC 001:138.317 - 0.063ms returns 0
T174FC 001:138.369 JLINK_WriteReg(R3, 0x00000000)
T174FC 001:138.409 - 0.059ms returns 0
T174FC 001:138.450 JLINK_WriteReg(R4, 0x00000000)
T174FC 001:138.484 - 0.051ms returns 0
T174FC 001:138.523 JLINK_WriteReg(R5, 0x00000000)
T174FC 001:138.552 - 0.043ms returns 0
T174FC 001:138.582 JLINK_WriteReg(R6, 0x00000000)
T174FC 001:138.617 - 0.052ms returns 0
T174FC 001:138.651 JLINK_WriteReg(R7, 0x00000000)
T174FC 001:138.679 - 0.042ms returns 0
T174FC 001:138.709 JLINK_WriteReg(R8, 0x00000000)
T174FC 001:138.738 - 0.043ms returns 0
T174FC 001:138.768 JLINK_WriteReg(R9, 0x20000180)
T174FC 001:138.797 - 0.042ms returns 0
T174FC 001:138.826 JLINK_WriteReg(R10, 0x00000000)
T174FC 001:138.855 - 0.043ms returns 0
T174FC 001:138.885 JLINK_WriteReg(R11, 0x00000000)
T174FC 001:138.914 - 0.042ms returns 0
T174FC 001:138.944 JLINK_WriteReg(R12, 0x00000000)
T174FC 001:138.967 - 0.032ms returns 0
T174FC 001:138.986 JLINK_WriteReg(R13 (SP), 0x20001000)
T174FC 001:139.006 - 0.033ms returns 0
T174FC 001:139.032 JLINK_WriteReg(R14, 0x20000001)
T174FC 001:139.050 - 0.027ms returns 0
T174FC 001:139.069 JLINK_WriteReg(R15 (PC), 0x2000010C)
T174FC 001:139.088 - 0.027ms returns 0
T174FC 001:139.106 JLINK_WriteReg(XPSR, 0x01000000)
T174FC 001:139.124 - 0.026ms returns 0
T174FC 001:139.143 JLINK_WriteReg(MSP, 0x20001000)
T174FC 001:139.160 - 0.026ms returns 0
T174FC 001:139.179 JLINK_WriteReg(PSP, 0x20001000)
T174FC 001:139.198 - 0.027ms returns 0
T174FC 001:139.216 JLINK_WriteReg(CFBP, 0x00000000)
T174FC 001:139.235 - 0.027ms returns 0
T174FC 001:139.254 JLINK_SetBPEx(Addr = 0x20000000, Type = 0xFFFFFFF2)
T174FC 001:139.275 - 0.029ms returns 0x00000007
T174FC 001:139.294 JLINK_Go()
T174FC 001:139.347   CPU_ReadMem(4 bytes @ 0xE0001000)
T174FC 001:143.434 - 4.178ms
T174FC 001:143.517 JLINK_IsHalted()
T174FC 001:144.721 - 1.244ms returns FALSE
T174FC 001:144.840 JLINK_HasError()
T174FC 001:149.503 JLINK_IsHalted()
T174FC 001:153.572   CPU_ReadMem(2 bytes @ 0x20000000)
T174FC 001:154.362 - 4.895ms returns TRUE
T174FC 001:154.471 JLINK_ReadReg(R15 (PC))
T174FC 001:154.504 - 0.042ms returns 0x20000000
T174FC 001:154.524 JLINK_ClrBPEx(BPHandle = 0x00000007)
T174FC 001:154.543 - 0.028ms returns 0x00
T174FC 001:154.562 JLINK_ReadReg(R0)
T174FC 001:154.580 - 0.027ms returns 0x00000000
T174FC 001:155.183 JLINK_WriteMem(0x20000184, 0x27C Bytes, ...)
T174FC 001:155.211   Data:  00 BF FE E7 70 47 72 B6 00 BF FE E7 F8 B5 02 46 ...
T174FC 001:155.247   CPU_WriteMem(636 bytes @ 0x20000184)
T174FC 001:159.070 - 3.924ms returns 0x27C
T174FC 001:159.169 JLINK_WriteMem(0x20000400, 0x184 Bytes, ...)
T174FC 001:159.201   Data:  04 00 00 20 08 B5 00 BF 00 20 00 90 0E 48 00 68 ...
T174FC 001:159.254   CPU_WriteMem(388 bytes @ 0x20000400)
T174FC 001:184.718 - 25.679ms returns 0x184
T174FC 001:184.991 JLINK_HasError()
T174FC 001:185.038 JLINK_WriteReg(R0, 0x08000800)
T174FC 001:185.089 - 0.066ms returns 0
T174FC 001:185.125 JLINK_WriteReg(R1, 0x00000400)
T174FC 001:185.155 - 0.045ms returns 0
T174FC 001:185.188 JLINK_WriteReg(R2, 0x20000184)
T174FC 001:185.218 - 0.044ms returns 0
T174FC 001:185.252 JLINK_WriteReg(R3, 0x00000000)
T174FC 001:185.282 - 0.044ms returns 0
T174FC 001:185.315 JLINK_WriteReg(R4, 0x00000000)
T174FC 001:185.346 - 0.183ms returns 0
T174FC 001:185.524 JLINK_WriteReg(R5, 0x00000000)
T174FC 001:185.562 - 0.055ms returns 0
T174FC 001:185.604 JLINK_WriteReg(R6, 0x00000000)
T174FC 001:185.646 - 0.059ms returns 0
T174FC 001:185.683 JLINK_WriteReg(R7, 0x00000000)
T174FC 001:185.719 - 0.054ms returns 0
T174FC 001:185.761 JLINK_WriteReg(R8, 0x00000000)
T174FC 001:185.798 - 0.053ms returns 0
T174FC 001:185.832 JLINK_WriteReg(R9, 0x20000180)
T174FC 001:185.852 - 0.029ms returns 0
T174FC 001:185.877 JLINK_WriteReg(R10, 0x00000000)
T174FC 001:185.896 - 0.028ms returns 0
T174FC 001:185.917 JLINK_WriteReg(R11, 0x00000000)
T174FC 001:185.938 - 0.033ms returns 0
T174FC 001:185.963 JLINK_WriteReg(R12, 0x00000000)
T174FC 001:185.982 - 0.029ms returns 0
T174FC 001:186.006 JLINK_WriteReg(R13 (SP), 0x20001000)
T174FC 001:186.036 - 0.041ms returns 0
T174FC 001:186.061 JLINK_WriteReg(R14, 0x20000001)
T174FC 001:186.127 - 0.077ms returns 0
T174FC 001:186.152 JLINK_WriteReg(R15 (PC), 0x2000010C)
T174FC 001:186.173 - 0.030ms returns 0
T174FC 001:186.196 JLINK_WriteReg(XPSR, 0x01000000)
T174FC 001:186.216 - 0.044ms returns 0
T174FC 001:186.261 JLINK_WriteReg(MSP, 0x20001000)
T174FC 001:186.280 - 0.029ms returns 0
T174FC 001:186.303 JLINK_WriteReg(PSP, 0x20001000)
T174FC 001:186.323 - 0.029ms returns 0
T174FC 001:186.346 JLINK_WriteReg(CFBP, 0x00000000)
T174FC 001:186.376 - 0.039ms returns 0
T174FC 001:186.400 JLINK_SetBPEx(Addr = 0x20000000, Type = 0xFFFFFFF2)
T174FC 001:186.431 - 0.043ms returns 0x00000008
T174FC 001:186.458 JLINK_Go()
T174FC 001:186.509   CPU_ReadMem(4 bytes @ 0xE0001000)
T174FC 001:191.039 - 4.643ms
T174FC 001:191.183 JLINK_IsHalted()
T174FC 001:191.925 - 0.762ms returns FALSE
T174FC 001:191.986 JLINK_HasError()
T174FC 001:196.397 JLINK_IsHalted()
T174FC 001:199.999   CPU_ReadMem(2 bytes @ 0x20000000)
T174FC 001:200.941 - 4.581ms returns TRUE
T174FC 001:201.058 JLINK_ReadReg(R15 (PC))
T174FC 001:201.101 - 0.061ms returns 0x20000000
T174FC 001:201.139 JLINK_ClrBPEx(BPHandle = 0x00000008)
T174FC 001:201.179 - 0.061ms returns 0x00
T174FC 001:201.298 JLINK_ReadReg(R0)
T174FC 001:201.342 - 0.054ms returns 0x00000000
T174FC 001:202.432 JLINK_WriteMem(0x20000184, 0x27C Bytes, ...)
T174FC 001:202.467   Data:  C0 60 00 28 F2 D0 20 78 00 F0 02 00 02 28 7D D1 ...
T174FC 001:202.510   CPU_WriteMem(636 bytes @ 0x20000184)
T174FC 001:206.528 - 4.138ms returns 0x27C
T174FC 001:206.638 JLINK_WriteMem(0x20000400, 0x184 Bytes, ...)
T174FC 001:206.669   Data:  0D 48 00 68 20 F4 60 40 21 69 40 EA C1 00 0A 49 ...
T174FC 001:206.725   CPU_WriteMem(388 bytes @ 0x20000400)
T174FC 001:209.400 - 2.791ms returns 0x184
T174FC 001:209.496 JLINK_HasError()
T174FC 001:209.531 JLINK_WriteReg(R0, 0x08000C00)
T174FC 001:209.565 - 0.048ms returns 0
T174FC 001:209.595 JLINK_WriteReg(R1, 0x00000400)
T174FC 001:209.624 - 0.043ms returns 0
T174FC 001:209.655 JLINK_WriteReg(R2, 0x20000184)
T174FC 001:209.684 - 0.043ms returns 0
T174FC 001:209.713 JLINK_WriteReg(R3, 0x00000000)
T174FC 001:209.741 - 0.047ms returns 0
T174FC 001:209.776 JLINK_WriteReg(R4, 0x00000000)
T174FC 001:209.804 - 0.042ms returns 0
T174FC 001:209.833 JLINK_WriteReg(R5, 0x00000000)
T174FC 001:209.861 - 0.042ms returns 0
T174FC 001:209.891 JLINK_WriteReg(R6, 0x00000000)
T174FC 001:209.920 - 0.043ms returns 0
T174FC 001:209.950 JLINK_WriteReg(R7, 0x00000000)
T174FC 001:209.979 - 0.043ms returns 0
T174FC 001:210.009 JLINK_WriteReg(R8, 0x00000000)
T174FC 001:210.038 - 0.042ms returns 0
T174FC 001:210.067 JLINK_WriteReg(R9, 0x20000180)
T174FC 001:210.095 - 0.042ms returns 0
T174FC 001:210.125 JLINK_WriteReg(R10, 0x00000000)
T174FC 001:210.154 - 0.042ms returns 0
T174FC 001:210.183 JLINK_WriteReg(R11, 0x00000000)
T174FC 001:210.249 - 0.081ms returns 0
T174FC 001:210.280 JLINK_WriteReg(R12, 0x00000000)
T174FC 001:210.308 - 0.042ms returns 0
T174FC 001:210.338 JLINK_WriteReg(R13 (SP), 0x20001000)
T174FC 001:210.368 - 0.044ms returns 0
T174FC 001:210.397 JLINK_WriteReg(R14, 0x20000001)
T174FC 001:210.425 - 0.042ms returns 0
T174FC 001:210.455 JLINK_WriteReg(R15 (PC), 0x2000010C)
T174FC 001:210.489 - 0.049ms returns 0
T174FC 001:210.519 JLINK_WriteReg(XPSR, 0x01000000)
T174FC 001:210.548 - 0.043ms returns 0
T174FC 001:210.579 JLINK_WriteReg(MSP, 0x20001000)
T174FC 001:210.609 - 0.045ms returns 0
T174FC 001:210.639 JLINK_WriteReg(PSP, 0x20001000)
T174FC 001:210.668 - 0.043ms returns 0
T174FC 001:210.698 JLINK_WriteReg(CFBP, 0x00000000)
T174FC 001:210.727 - 0.042ms returns 0
T174FC 001:210.770 JLINK_SetBPEx(Addr = 0x20000000, Type = 0xFFFFFFF2)
T174FC 001:210.801 - 0.045ms returns 0x00000009
T174FC 001:210.830 JLINK_Go()
T174FC 001:210.868   CPU_ReadMem(4 bytes @ 0xE0001000)
T174FC 001:214.863 - 4.067ms
T174FC 001:214.945 JLINK_IsHalted()
T174FC 001:241.985   CPU_ReadMem(2 bytes @ 0x20000000)
T174FC 001:242.816 - 27.891ms returns TRUE
T174FC 001:242.894 JLINK_ReadReg(R15 (PC))
T174FC 001:242.930 - 0.051ms returns 0x20000000
T174FC 001:242.966 JLINK_ClrBPEx(BPHandle = 0x00000009)
T174FC 001:242.996 - 0.044ms returns 0x00
T174FC 001:243.030 JLINK_ReadReg(R0)
T174FC 001:243.059 - 0.043ms returns 0x00000000
T174FC 001:243.957 JLINK_WriteMem(0x20000184, 0x27C Bytes, ...)
T174FC 001:244.010   Data:  00 68 C0 F3 40 40 00 28 59 D0 60 68 00 28 56 D1 ...
T174FC 001:244.125   CPU_WriteMem(636 bytes @ 0x20000184)
T174FC 001:248.062 - 4.137ms returns 0x27C
T174FC 001:248.134 JLINK_WriteMem(0x20000400, 0x184 Bytes, ...)
T174FC 001:248.155   Data:  A0 68 05 28 0D D1 4E 48 68 30 00 68 40 F0 04 00 ...
T174FC 001:248.209   CPU_WriteMem(388 bytes @ 0x20000400)
T174FC 001:251.033 - 2.942ms returns 0x184
T174FC 001:251.155 JLINK_HasError()
T174FC 001:251.191 JLINK_WriteReg(R0, 0x08001000)
T174FC 001:251.226 - 0.049ms returns 0
T174FC 001:251.256 JLINK_WriteReg(R1, 0x00000400)
T174FC 001:251.288 - 0.045ms returns 0
T174FC 001:251.318 JLINK_WriteReg(R2, 0x20000184)
T174FC 001:251.347 - 0.043ms returns 0
T174FC 001:251.377 JLINK_WriteReg(R3, 0x00000000)
T174FC 001:251.405 - 0.042ms returns 0
T174FC 001:251.435 JLINK_WriteReg(R4, 0x00000000)
T174FC 001:251.464 - 0.043ms returns 0
T174FC 001:251.493 JLINK_WriteReg(R5, 0x00000000)
T174FC 001:251.560 - 0.080ms returns 0
T174FC 001:251.589 JLINK_WriteReg(R6, 0x00000000)
T174FC 001:251.618 - 0.043ms returns 0
T174FC 001:251.647 JLINK_WriteReg(R7, 0x00000000)
T174FC 001:251.676 - 0.042ms returns 0
T174FC 001:251.707 JLINK_WriteReg(R8, 0x00000000)
T174FC 001:251.750 - 0.058ms returns 0
T174FC 001:251.782 JLINK_WriteReg(R9, 0x20000180)
T174FC 001:251.814 - 0.047ms returns 0
T174FC 001:251.847 JLINK_WriteReg(R10, 0x00000000)
T174FC 001:251.879 - 0.048ms returns 0
T174FC 001:251.912 JLINK_WriteReg(R11, 0x00000000)
T174FC 001:251.944 - 0.047ms returns 0
T174FC 001:251.977 JLINK_WriteReg(R12, 0x00000000)
T174FC 001:252.010 - 0.048ms returns 0
T174FC 001:252.043 JLINK_WriteReg(R13 (SP), 0x20001000)
T174FC 001:252.076 - 0.048ms returns 0
T174FC 001:252.109 JLINK_WriteReg(R14, 0x20000001)
T174FC 001:252.141 - 0.048ms returns 0
T174FC 001:252.174 JLINK_WriteReg(R15 (PC), 0x2000010C)
T174FC 001:252.206 - 0.047ms returns 0
T174FC 001:252.238 JLINK_WriteReg(XPSR, 0x01000000)
T174FC 001:252.270 - 0.047ms returns 0
T174FC 001:252.303 JLINK_WriteReg(MSP, 0x20001000)
T174FC 001:252.335 - 0.047ms returns 0
T174FC 001:252.367 JLINK_WriteReg(PSP, 0x20001000)
T174FC 001:252.399 - 0.047ms returns 0
T174FC 001:252.431 JLINK_WriteReg(CFBP, 0x00000000)
T174FC 001:252.463 - 0.047ms returns 0
T174FC 001:252.496 JLINK_SetBPEx(Addr = 0x20000000, Type = 0xFFFFFFF2)
T174FC 001:252.555 - 0.075ms returns 0x0000000A
T174FC 001:252.589 JLINK_Go()
T174FC 001:252.632   CPU_ReadMem(4 bytes @ 0xE0001000)
T174FC 001:256.847 - 4.299ms
T174FC 001:256.938 JLINK_IsHalted()
T174FC 001:257.769 - 0.902ms returns FALSE
T174FC 001:257.906 JLINK_HasError()
T174FC 001:274.500 JLINK_IsHalted()
T174FC 001:298.808   CPU_ReadMem(2 bytes @ 0x20000000)
T174FC 001:300.137 - 25.679ms returns TRUE
T174FC 001:300.259 JLINK_ReadReg(R15 (PC))
T174FC 001:300.305 - 0.063ms returns 0x20000000
T174FC 001:300.349 JLINK_ClrBPEx(BPHandle = 0x0000000A)
T174FC 001:300.386 - 0.053ms returns 0x00
T174FC 001:300.425 JLINK_ReadReg(R0)
T174FC 001:300.459 - 0.050ms returns 0x00000000
T174FC 001:301.679 JLINK_WriteMem(0x20000184, 0x27C Bytes, ...)
T174FC 001:301.740   Data:  00 1D 06 68 A0 69 01 28 20 D0 06 F4 80 01 E0 69 ...
T174FC 001:301.813   CPU_WriteMem(636 bytes @ 0x20000184)
T174FC 001:305.956 - 4.317ms returns 0x27C
T174FC 001:306.074 JLINK_WriteMem(0x20000400, 0x184 Bytes, ...)
T174FC 001:306.106   Data:  81 58 00 BF CA 20 21 68 48 62 53 20 21 68 48 62 ...
T174FC 001:306.161   CPU_WriteMem(388 bytes @ 0x20000400)
T174FC 001:308.955 - 2.923ms returns 0x184
T174FC 001:309.057 JLINK_HasError()
T174FC 001:309.093 JLINK_WriteReg(R0, 0x08001400)
T174FC 001:309.130 - 0.052ms returns 0
T174FC 001:309.162 JLINK_WriteReg(R1, 0x00000400)
T174FC 001:309.191 - 0.044ms returns 0
T174FC 001:309.222 JLINK_WriteReg(R2, 0x20000184)
T174FC 001:309.251 - 0.043ms returns 0
T174FC 001:309.282 JLINK_WriteReg(R3, 0x00000000)
T174FC 001:309.311 - 0.043ms returns 0
T174FC 001:309.341 JLINK_WriteReg(R4, 0x00000000)
T174FC 001:309.380 - 0.056ms returns 0
T174FC 001:309.414 JLINK_WriteReg(R5, 0x00000000)
T174FC 001:309.443 - 0.043ms returns 0
T174FC 001:309.473 JLINK_WriteReg(R6, 0x00000000)
T174FC 001:309.503 - 0.044ms returns 0
T174FC 001:309.533 JLINK_WriteReg(R7, 0x00000000)
T174FC 001:309.562 - 0.043ms returns 0
T174FC 001:309.645 JLINK_WriteReg(R8, 0x00000000)
T174FC 001:309.674 - 0.043ms returns 0
T174FC 001:309.704 JLINK_WriteReg(R9, 0x20000180)
T174FC 001:309.733 - 0.042ms returns 0
T174FC 001:309.763 JLINK_WriteReg(R10, 0x00000000)
T174FC 001:309.792 - 0.043ms returns 0
T174FC 001:309.822 JLINK_WriteReg(R11, 0x00000000)
T174FC 001:309.851 - 0.043ms returns 0
T174FC 001:309.881 JLINK_WriteReg(R12, 0x00000000)
T174FC 001:309.910 - 0.043ms returns 0
T174FC 001:309.940 JLINK_WriteReg(R13 (SP), 0x20001000)
T174FC 001:309.971 - 0.044ms returns 0
T174FC 001:310.001 JLINK_WriteReg(R14, 0x20000001)
T174FC 001:310.030 - 0.043ms returns 0
T174FC 001:310.059 JLINK_WriteReg(R15 (PC), 0x2000010C)
T174FC 001:310.089 - 0.044ms returns 0
T174FC 001:310.120 JLINK_WriteReg(XPSR, 0x01000000)
T174FC 001:310.149 - 0.043ms returns 0
T174FC 001:310.179 JLINK_WriteReg(MSP, 0x20001000)
T174FC 001:310.208 - 0.043ms returns 0
T174FC 001:310.238 JLINK_WriteReg(PSP, 0x20001000)
T174FC 001:310.267 - 0.043ms returns 0
T174FC 001:310.297 JLINK_WriteReg(CFBP, 0x00000000)
T174FC 001:310.326 - 0.043ms returns 0
T174FC 001:310.357 JLINK_SetBPEx(Addr = 0x20000000, Type = 0xFFFFFFF2)
T174FC 001:310.397 - 0.057ms returns 0x0000000B
T174FC 001:310.437 JLINK_Go()
T174FC 001:310.496   CPU_ReadMem(4 bytes @ 0xE0001000)
T174FC 001:314.673 - 4.316ms
T174FC 001:314.809 JLINK_IsHalted()
T174FC 001:315.547 - 0.769ms returns FALSE
T174FC 001:315.636 JLINK_HasError()
T174FC 001:316.889 JLINK_IsHalted()
T174FC 001:317.824 - 0.967ms returns FALSE
T174FC 001:317.908 JLINK_HasError()
